(1787046205.091090) can0 01F83100#370500A4 R
(1787046205.098246) can0 03106300#55150101 R
(1787046205.099812) can0 03216400# R
(1787046205.101387) can0 03216401# R
(1787046205.102145) can0 01F83100#370500A5 R
(1787046205.113942) can0 02F83207#00000000009906 R
(1787046205.114479) can0 01F83100#370500A6 R
(1787046205.115945) can0 02F83204#01 R
(1787046205.117940) can0 02F83202#00 R
(1787046205.125680) can0 01F83100#370500A7 R
(1787046205.137136) can0 01F83100#370500A8 R
(1787046205.148593) can0 01F83100#370500A9 R
(1787046205.157051) can0 02F83201#00000000AA0F41FF R
(1787046205.158052) can0 02F83200#4E00000037055014 R
(1787046205.160760) can0 01F83100#370500AA R
(1787046205.172217) can0 01F83100#370500AB R
(1787046205.183672) can0 01F83100#370500AC R
(1787046205.195133) can0 01F83100#370500AD R
(1787046205.197189) can0 03106300#55150101 R
(1787046205.198759) can0 03216400# R
(1787046205.200325) can0 03216401# R
(1787046205.206717) can0 01F83100#370500AE R
(1787046205.209185) can0 02F83208#0000 R
(1787046205.214199) can0 02F83207#00000000009906 R
(1787046205.283739) can0 02F83202#00 R
(1787046205.218519) can0 01F83100#340500AF R
(1787046205.230375) can0 01F83100#340500B0 R
(1787046205.241833) can0 01F83100#370500B1 R
(1787046205.253295) can0 01F83100#370500B2 R
(1787046205.264751) can0 01F83100#340500B3 R
(1787046205.265173) can0 01F83101#0000E90456066D08 R
(1787046205.276286) can0 01F83100#370500B4 R
(1787046205.276712) can0 01F83102#400B980D780F0000 R
(1787046205.287813) can0 01F83100#340500B5 R
(1787046205.288238) can0 01F83103#D204C00497047204 R
(1787046205.297528) can0 03106300#55150101 R
(1787046205.299098) can0 03216400# R
(1787046205.299555) can0 01F83100#340500B6 R
(1787046205.300681) can0 03216401# R
(1787046205.311591) can0 01F83100#370500B7 R
(1787046205.314463) can0 02F83207#00000000009906 R
(1787046205.318495) can0 02F83202#00 R
(1787046205.323108) can0 01F83100#370500B8 R
(1787046205.334566) can0 01F83100#370500B9 R
(1787046205.346023) can0 01F83100#370500BA R
(1787046205.357480) can0 01F83100#370500BB R
(1787046205.369595) can0 01F83100#340500BC R
(1787046205.381052) can0 01F83100#340500BD R
(1787046205.392508) can0 01F83100#340500BE R
(1787046205.399129) can0 03106300#55150101 R
(1787046205.400699) can0 03216400# R
(1787046205.402269) can0 03216401# R
(1787046205.404098) can0 01F83100#370500BF R
(1787046205.405700) can0 02F83203#C409C0019D08 R
(1787046205.407706) can0 02F83201#00000000B40F41FF R
(1787046205.408711) can0 02F83200#4E00000037055014 R
(1787046205.409708) can0 02F83208#0000 R
(1787046205.480286) can0 02F83207#00000000009906 R
(1787046205.415820) can0 01F83100#370500C0 R
(1787046205.418756) can0 02F83202#00 R
(1787046205.420758) can0 02F83000#12000000 R
(1787046205.427196) can0 01F83100#370500C1 R
(1787046205.438647) can0 01F83100#340500C2 R
(1787046205.450758) can0 01F83100#370500C3 R
(1787046205.462220) can0 01F83100#370500C4 R
(1787046205.473677) can0 01F83100#340500C5 R
(1787046205.485135) can0 01F83100#370500C6 R
(1787046205.497250) can0 01F83100#370500C7 R
(1787046205.497671) can0 03106300#55150101 R
(1787046205.499168) can0 03106303#05 R
(1787046205.500734) can0 03216400# R
(1787046205.502307) can0 03216401# R
(1787046205.503873) can0 03FF1300#00 R
(1787046205.508921) can0 01F83100#370500C8 R
(1787046205.514999) can0 02F83207#00000000009906 R
(1787046205.516997) can0 02F83204#01 R
(1787046205.518995) can0 02F83202#00 R
(1787046205.519942) can0 01F83100#370500C9 R
(1787046205.531919) can0 01F83100#370500CA R
(1787046205.543375) can0 01F83100#340500CB R
(1787046205.554834) can0 01F83100#370500CC R
(1787046205.566942) can0 01F83100#370500CD R
(1787046205.578398) can0 01F83100#370500CE R
(1787046205.589860) can0 01F83100#370500CF R
(1787046205.599416) can0 03106300#55150101 R
(1787046205.600986) can0 03216400# R
(1787046205.601523) can0 01F83100#370500D0 R
(1787046205.602573) can0 03216401# R
(1787046205.610235) can0 02F83208#0000 R
(1787046205.612923) can0 01F83100#370500D1 R
(1787046205.615238) can0 02F83207#00000000009906 R
(1787046205.619239) can0 02F83202#00 R
(1787046205.624439) can0 01F83100#370500D2 R
(1787046205.636552) can0 01F83100#370500D3 R
(1787046205.648007) can0 01F83100#370500D4 R
(1787046205.658341) can0 02F83201#00000000AA0F41FF R
(1787046205.659346) can0 02F83200#4E00000037055014 R
(1787046205.659910) can0 01F83100#370500D5 R
(1787046205.670968) can0 01F83100#370500D6 R
(1787046205.682429) can0 01F83100#370500D7 R
(1787046205.694537) can0 01F83100#370500D8 R
(1787046205.697845) can0 03106300#55150101 R
(1787046205.699415) can0 03216400# R
(1787046205.700980) can0 03216401# R
(1787046205.702473) can0 02FF1200#00 R
(1787046205.706148) can0 01F83100#340500D9 R
(1787046205.715482) can0 02F83207#00000000009906 R
(1787046205.717631) can0 01F83100#370500DA R
(1787046205.719490) can0 02F83202#00 R
(1787046205.729121) can0 01F83100#370500DB R
(1787046205.740583) can0 01F83100#370500DC R
(1787046205.752039) can0 01F83100#370500DD R
(1787046205.764150) can0 01F83100#370500DE R
(1787046205.775609) can0 01F83100#370500DF R
(1787046205.787064) can0 01F83100#370500E0 R
(1787046205.798521) can0 01F83100#370500E1 R
(1787046205.800043) can0 03106300#55150101 R
(1787046205.801613) can0 03216400# R
(1787046205.802715) can0 02F83205#0000 R
(1787046205.803203) can0 03216401# R
