(1786978123.393053) can0 01F83100#F10400F0 R
(1786978123.393160) can0 03106300#55150001 R
(1786978123.393241) can0 03106303#05 R
(1786978123.393311) can0 03216401# R
(1786978123.393419) can0 01F83100#F10400F1 R
(1786978123.393544) can0 041A6401#0B0062175A02 R
(1786978123.393652) can0 01F83100#ED0400F2 R
(1786978123.403174) can0 01F83100#F10400F3 R
(1786978123.414622) can0 01F83100#ED0400F4 R
(1786978123.415110) can0 02F83207#00000000000000 R
(1786978123.416736) can0 02F83204#01 R
(1786978123.418755) can0 02F83202#00 R
(1786978123.426148) can0 01F83100#ED0400F5 R
(1786978123.437620) can0 01F83100#ED0400F6 R
(1786978123.449709) can0 01F83100#F10400F7 R
(1786978123.458125) can0 02F83201#000000001E143FFF R
(1786978123.459081) can0 02F83200#37000000F1040410 R
(1786978123.459474) can0 04F83401#0000A30E3D R
(1786978123.460668) can0 01F83100#F10400F8 R
(1786978123.470424) can0 04F83400#682BDF17373164 R
(1786978123.473394) can0 01F83100#F10400F9 R
(1786978123.473579) can0 04F83402#04 R
(1786978123.475298) can0 03106300#55150001 R
(1786978123.476689) can0 03216401# R
(1786978123.484298) can0 01F83100#F10400FA R
(1786978123.487551) can0 041A6401#0B0062175A02 R
(1786978123.495923) can0 01F83100#F10400FB R
(1786978123.612700) can0 01F83100#F1040004 R
(1786978123.612891) can0 01F83100#F1040005 R
(1786978123.615343) can0 02F83207#00000000000000 R
(1786978123.618995) can0 02F83202#00 R
(1786978123.623461) can0 01F83100#ED040006 R
(1786978123.634812) can0 01F83100#ED040007 R
(1786978123.646294) can0 01F83100#F1040008 R
(1786978123.658326) can0 01F83100#F1040009 R
(1786978123.669820) can0 01F83100#ED04000A R
(1786978123.675004) can0 03106300#55150001 R
(1786978123.676325) can0 03216401# R
(1786978123.681253) can0 01F83100#F104000B R
(1786978123.682146) can0 041A6401#0B0062175A02 R
(1786978123.692796) can0 01F83100#F104000C R
(1786978123.704409) can0 01F83100#F104000D R
(1786978123.706486) can0 02F83203#C409C0019D08 R
(1786978123.708455) can0 02F83201#000000001E143FFF R
(1786978123.709436) can0 02F83200#37000000F1040410 R
(1786978123.710157) can0 02F83208#0000 R
(1786978123.715436) can0 02F83207#00000000000000 R
(1786978123.715772) can0 01F83100#F104000E R
(1786978123.727317) can0 2F830100#04D40F R
(1786978123.739412) can0 01F83100#ED040010 R
(1786978123.750852) can0 01F83100#ED040011 R
(1786978123.762392) can0 01F83100#F1040012 R
(1786978123.773727) can0 01F83100#ED040013 R
(1786978123.776346) can0 03106300#55150001 R
(1786978123.777767) can0 03216401# R
(1786978123.779396) can0 03FF1300#07 R
(1786978123.784865) can0 041A6401#0B0062175A02 R
(1786978123.785388) can0 01F83100#ED040014 R
(1786978123.788092) can0 04F83401#0000A30E3D R
(1786978123.796858) can0 01F83100#ED040015 R
(1786978123.808959) can0 01F83100#F1040016 R
(1786978123.815632) can0 02F83207#00000000000000 R
(1786978123.817271) can0 02F83204#01 R
(1786978123.819263) can0 02F83202#00 R
(1786978123.821301) can0 01F83100#F1040017 R
(1786978123.831980) can0 01F83100#F1040018 R
(1786978123.854877) can0 01F83100#F104001A R
(1786978123.866955) can0 01F83100#F104001B R
(1786978123.876918) can0 03106300#55150001 R
(1786978123.878208) can0 03216401# R
(1786978123.878730) can0 01F83100#F104001C R
(1786978123.885305) can0 041A6401#0B0062175A02 R
(1786978123.889959) can0 01F83100#ED04001D R
(1786978123.901438) can0 01F83100#F104001E R
(1786978123.910548) can0 02F83208#0000 R
(1786978123.912871) can0 01F83100#F104001F R
(1786978123.915864) can0 02F83207#00000000000000 R
(1786978123.919534) can0 02F83202#00 R
(1786978123.924389) can0 01F83100#F1040020 R
(1786978123.936514) can0 01F83100#ED040021 R
(1786978123.947977) can0 01F83100#ED040022 R
(1786978123.959495) can0 28308000# R
(1786978124.062331) can0 03106300#55150001 R
(1786978124.062529) can0 03216401# R
(1786978124.062666) can0 01F83100#F1040025 R
(1786978124.062818) can0 041A6401#0B0062175A02 R
(1786978124.062930) can0 01F83100#F1040026 R
(1786978124.063010) can0 02FF1200#07 R
(1786978124.063115) can0 01F83100#F1040027 R
(1786978124.063244) can0 02F83207#00000000000000 R
(1786978124.063349) can0 01F83100#ED040028 R
(1786978124.063575) can0 01F83101#0000E90456066D08 R
(1786978124.063715) can0 02F83202#00 R
(1786978124.063823) can0 01F83100#ED040029 R
(1786978124.063991) can0 01F83102#400B980D780F0000 R
(1786978124.064180) can0 01F83100#ED04002A R
(1786978124.064328) can0 01F83103#D204C00497047204 R
(1786978124.064430) can0 01F83100#F104002B R
(1786978124.064528) can0 01F83100#F104002C R
