(1787223597.463853) can0 01F83100#9C0F120C R
(1787223597.474936) can0 01F83100#9C0F120D R
(1787223597.478570) can0 03106300#55030101 R
(1787223597.480140) can0 03216401# R
(1787223597.481714) can0 03FF1300#00 R
(1787223597.486803) can0 01F83100#9C0F120E R
(1787223597.488883) can0 041A6401#0B0062179E02 R
(1787223597.498594) can0 01F83100#9C0F120F R
(1787223597.499027) can0 01F83101#0000E90456066D08 R
(1787223597.508030) can0 02F83201#EB024C03DE0D44FF R
(1787223597.509031) can0 02F83200#345500129C0F280A R
(1787223597.510028) can0 02F83208#AB00 R
(1787223597.510377) can0 01F83100#9C0F1210 R
(1787223597.510794) can0 01F83102#400B980D780F0000 R
(1787223597.515036) can0 02F83207#41008BF4046E22 R
(1787223597.519036) can0 02F83202#00 R
(1787223597.521700) can0 01F83100#9C0F1211 R
(1787223597.522117) can0 01F83103#D204C00497047204 R
(1787223597.533510) can0 01F83100#9C0F1212 R
(1787223597.544593) can0 01F83100#9C0F1213 R
(1787223597.556325) can0 01F83100#9C0F1214 R
(1787223597.568062) can0 01F83100#9C0F1215 R
(1787223597.575190) can0 04F83401#D5FD210E3E R
(1787223597.577087) can0 03106300#55030101 R
(1787223597.578657) can0 03216401# R
(1787223597.580057) can0 01F83100#9C0F1216 R
(1787223597.587438) can0 041A6401#0B0062179E02 R
(1787223597.591073) can0 01F83100#9C0F1217 R
(1787223597.602810) can0 01F83100#9C0F1218 R
(1787223597.614542) can0 01F83100#9C0F1219 R
(1787223597.615288) can0 02F83207#41008BF4047022 R
(1787223597.619280) can0 02F83202#00 R
(1787223597.626333) can0 01F83100#9C0F121A R
(1787223597.637415) can0 01F83100#9C0F121B R
(1787223597.649185) can0 01F83100#9C0F121C R
(1787223597.660917) can0 01F83100#9C0F121D R
(1787223597.672653) can0 01F83100#9C0F121E R
(1787223597.677635) can0 03106300#55030101 R
(1787223597.679201) can0 03216401# R
(1787223597.683819) can0 01F83100#9C0F121F R
(1787223597.687895) can0 041A6401#0B0062179E02 R
(1787223597.695603) can0 01F83100#9C0F1220 R
(1787223597.707409) can0 01F83100#9C0F1221 R
(1787223597.710503) can0 02F83208#9E00 R
(1787223597.716007) can0 20000080#0000000000000001
(1787223597.716056) can0 02F83207#41008BF4047222 R
(1787223597.719196) can0 01F83100#9C0F1122 R
(1787223597.719613) can0 02F83202#00 R
(1787223597.730306) can0 01F83100#9C0F1123 R
(1787223597.742045) can0 01F83100#9C0F1124 R
(1787223597.753783) can0 01F83100#9C0F1125 R
(1787223597.758661) can0 02F83201#EB024C04AC0D44FF R
(1787223597.759662) can0 02F83200#345500109C0F280A R
(1787223597.765570) can0 01F83100#9C0F1126 R
(1787223597.776651) can0 01F83100#9C0F1127 R
(1787223597.780128) can0 03106300#55030101 R
(1787223597.781698) can0 03216401# R
(1787223597.788473) can0 01F83100#9C0F1128 R
(1787223597.792441) can0 041A6401#0B0062179E02 R
(1787223597.800259) can0 01F83100#9C0F1129 R
(1787223597.811995) can0 01F83100#9C0F112A R
(1787223597.815750) can0 02F83207#41008BF4047322 R
(1787223597.817752) can0 02F83204#01 R
(1787223597.819758) can0 02F83202#00 R
(1787223597.823160) can0 01F83100#9C0F112B R
(1787223597.834894) can0 01F83100#9C0F112C R
(1787223597.846632) can0 01F83100#9C0F112D R
(1787223597.858368) can0 01F83100#9C0F112E R
(1787223597.869450) can0 01F83100#9C0F112F R
(1787223597.880178) can0 03106300#55030101 R
(1787223597.881349) can0 01F83100#9C0F1130 R
(1787223597.881770) can0 03216401# R
(1787223597.892223) can0 041A6401#0B0062179E02 R
(1787223597.893169) can0 01F83100#9C0F1131 R
(1787223597.904798) can0 01F83100#9C0F1132 R
(1787223597.909408) can0 04F83401#C3FC120E3E R
(1787223597.910989) can0 02F83208#9900 R
(1787223597.911714) can0 04F83400#682B6C16342F64 R
(1787223597.916019) can0 01F83100#9C0F1133 R
(1787223597.916437) can0 02F83207#41008BF4047422 R
(1787223597.920048) can0 02F83202#00 R
(1787223597.927848) can0 01F83100#9C0F1134 R
(1787223597.939585) can0 01F83100#9C0F1135 R
(1787223597.951321) can0 01F83100#9C0F1136 R
(1787223597.962405) can0 01F83100#9C0F1137 R
(1787223597.974139) can0 01F83100#9C0F1138 R
(1787223597.977656) can0 03106300#55030101 R
(1787223597.979225) can0 03216401# R
(1787223597.980791) can0 03FF1300#00 R
(1787223597.986077) can0 01F83100#980F1139 R
(1787223597.987443) can0 041A6401#0B0062179E02 R
(1787223597.997213) can0 01F83100#900F113A R
(1787223598.008951) can0 01F83100#900F113B R
(1787223598.009372) can0 02F83201#EB026C057A0D44FF R
(1787223598.010293) can0 02F83200#3455000F900F280A R
(1787223598.016296) can0 02F83207#41008BF4047622 R
(1787223598.020292) can0 02F83202#00 R
(1787223598.020930) can0 01F83100#840F113C R
(1787223598.032531) can0 01F83100#260F113D R
(1787223598.043614) can0 01F83100#130F113E R
(1787223598.055342) can0 01F83100#1B0F113F R
(1787223598.067069) can0 01F83100#860E1140 R
(1787223598.077894) can0 03106300#55030101 R
(1787223598.078968) can0 01F83100#4C0E1141 R
(1787223598.079477) can0 03106303#05 R
(1787223598.081046) can0 03216401# R
(1787223598.090001) can0 01F83100#670E1142 R
(1787223598.093537) can0 041A6401#0B0062179E02 R
(1787223598.101784) can0 01F83100#0D0E1143 R
(1787223598.111521) can0 02F83208#9100 R
(1787223598.113539) can0 01F83100#D60D1144 R
(1787223598.116526) can0 02F83207#41008BF4047822 R
(1787223598.120522) can0 02F83202#00 R
(1787223598.125325) can0 01F83100#D60D1145 R
(1787223598.136399) can0 01F83100#520D1146 R
(1787223598.148126) can0 01F83100#DC0C1147 R
(1787223598.159857) can0 01F83100#C50C1148 R
(1787223598.171585) can0 01F83100#580C1149 R
(1787223598.179510) can0 03106300#55030101 R
(1787223598.181079) can0 03216401# R
(1787223598.182796) can0 01F83100#C30B114A R
(1787223598.188222) can0 041A6401#0B0062179E02 R
(1787223598.194560) can0 01F83100#980B114B R
(1787223598.206296) can0 01F83100#650B114C R
(1787223598.216759) can0 02F83207#41008BF4047922 R
(1787223598.218190) can0 01F83100#E80A114D R
(1787223598.218819) can0 02F83204#01 R
(1787223598.220757) can0 02F83202#00 R
(1787223598.229259) can0 01F83100#C10A114E R
(1787223598.240990) can0 01F83100#9A0A114F R
(1787223598.244538) can0 04F83401#B4FBCB0D3E R
(1787223598.247057) can0 04F83402#04 R
(1787223598.252835) can0 01F83100#310A1150 R
(1787223598.259902) can0 02F83201#EB02D005660D44FF R
(1787223598.260907) can0 02F83200#3455000F310A280A R
(1787223598.264610) can0 01F83100#390A1151 R
(1787223598.275688) can0 01F83100#290A1152 R
(1787223598.279657) can0 03106300#55030101 R
(1787223598.281227) can0 03216401# R
(1787223598.287506) can0 01F83100#B0091153 R
(1787223598.292881) can0 041A6401#0B0062179E02 R
(1787223598.299292) can0 01F83100#91091154 R
(1787223598.311016) can0 01F83100#95091155 R
(1787223598.311998) can0 02F83208#8F00 R
(1787223598.317002) can0 02F83207#41008BF4047B22 R
(1787223598.321006) can0 02F83202#00 R
(1787223598.322309) can0 01F83100#4E091156 R
(1787223598.333914) can0 01F83100#43091157 R
(1787223598.345645) can0 01F83100#3B091158 R
(1787223598.357369) can0 01F83100#AA081159 R
(1787223598.368445) can0 01F83100#7708115A R
(1787223598.379996) can0 03106300#55030101 R
(1787223598.380413) can0 01F83100#7F08115B R
(1787223598.381579) can0 03216401# R
(1787223598.390722) can0 041A6401#0B0062179E02 R
(1787223598.392146) can0 01F83100#3908115C R
(1787223598.403766) can0 01F83100#2908115D R
(1787223598.415274) can0 01F83100#3D08115E R
(1787223598.417297) can0 02F83207#41008BF4047D22 R
(1787223598.421297) can0 02F83202#00 R
(1787223598.426654) can0 01F83100#0608115F R
(1787223598.438384) can0 01F83100#1E081160 R
(1787223598.450108) can0 01F83100#74081161 R
(1787223598.461248) can0 01F83100#77081162 R
(1787223598.472977) can0 01F83100#CA081163 R
(1787223598.480040) can0 03106300#55030101 R
(1787223598.481610) can0 03216401# R
(1787223598.483176) can0 03FF1300#00 R
(1787223598.484873) can0 01F83100#47091164 R
(1787223598.490155) can0 041A6401#0B0062179E02 R
(1787223598.496626) can0 01F83100#47091165 R
(1787223598.507700) can0 01F83100#62091166 R
(1787223598.508530) can0 02F83203#9411C0019D08 R
(1787223598.511112) can0 02F83201#EB02AF05660D44FF R
(1787223598.512534) can0 02F83208#8D00 R
(1787223598.517538) can0 02F83207#41008BF4047E22 R
(1787223598.519628) can0 01F83100#B4091167 R
(1787223598.521534) can0 02F83202#00 R
(1787223598.531290) can0 01F83100#AC091168 R
(1787223598.531707) can0 01F83101#0000E90456066D08 R
(1787223598.543089) can0 01F83100#F6091169 R
(1787223598.543510) can0 01F83102#400B980D780F0000 R
(1787223598.554239) can0 01F83100#500A116A R
(1787223598.554656) can0 01F83103#D204C00497047204 R
(1787223598.566047) can0 01F83100#120A116B R
(1787223598.574956) can0 04F83401#36FAA30D3E R
(1787223598.577259) can0 04F83400#682B6916342F64 R
(1787223598.578000) can0 01F83100#250A116C R
(1787223598.579158) can0 03106300#55030101 R
(1787223598.580724) can0 03216401# R
(1787223598.589054) can0 01F83100#8B0A116D R
(1787223598.591706) can0 041A6401#0B0062179E02 R
(1787223598.600848) can0 01F83100#9E0A116E R
(1787223598.612578) can0 01F83100#D90A116F R
(1787223598.617775) can0 02F83207#33008C49068022 R
(1787223598.619773) can0 02F83204#01 R
(1787223598.622067) can0 20000080#0000020000000001
(1787223598.622123) can0 02F83202#00 R
(1787223598.623924) can0 01F83100#4A0B1170 R
(1787223598.635472) can0 01F83100#520B1171 R
(1787223598.647200) can0 01F83100#3E0B1172 R
(1787223598.658968) can0 01F83100#890B1173 R
(1787223598.670697) can0 01F83100#BB0B1174 R
(1787223598.681595) can0 03106300#55030101 R
(1787223598.682011) can0 01F83100#B80B1175 R
(1787223598.683182) can0 03216401# R
(1787223598.693582) can0 01F83100#DF0B1176 R
(1787223598.694003) can0 041A6401#0B0062179E02 R
(1787223598.705433) can0 01F83100#290C1277 R
(1787223598.713009) can0 02F83208#8E00 R
(1787223598.717181) can0 01F83100#1D0C1278 R
(1787223598.718019) can0 02F83207#33008C49068222 R
(1787223598.722011) can0 02F83202#00 R
(1787223598.728310) can0 01F83100#380C1279 R
(1787223598.740036) can0 01F83100#8A0C127A R
(1787223598.751759) can0 01F83100#6B0C127B R
(1787223598.761158) can0 02F83201#28028E05700D44FF R
(1787223598.762158) can0 02F83200#3455000E6B0C280A R
(1787223598.764011) can0 20000080#0000040000000001
(1787223598.764068) can0 01F83100#7F0C127C R
(1787223598.774608) can0 01F83100#D90C127D R
(1787223598.781700) can0 03106300#55030101 R
(1787223598.783270) can0 03216401# R
(1787223598.786416) can0 01F83100#CD0C127E R
(1787223598.790484) can0 041A6401#0B0062179E02 R
(1787223598.798201) can0 01F83100#E80C127F R
(1787223598.805248) can0 02FF1200#00 R
(1787223598.809955) can0 01F83100#520D1280 R
(1787223598.818257) can0 02F83207#33008C49068322 R
(1787223598.821053) can0 01F83100#420D1281 R
(1787223598.822312) can0 02F83202#00 R
(1787223598.832813) can0 01F83100#130D1282 R
(1787223598.844539) can0 01F83100#460D1283 R
(1787223598.856269) can0 01F83100#880D1284 R
(1787223598.867999) can0 01F83100#AF0D1285 R
(1787223598.879067) can0 01F83100#050E1286 R
(1787223598.882264) can0 03106300#55030101 R
(1787223598.883831) can0 03216401# R
(1787223598.890889) can0 01F83100#530E1287 R
(1787223598.892531) can0 041A6401#0B0062179E02 R
(1787223598.903099) can0 20000080#0000020000000001
(1787223598.903159) can0 01F83100#2C0E1288 R
(1787223598.905490) can0 02F83205#0800 R
(1787223598.909614) can0 04F83401#55FAA30D3E R
(1787223598.913501) can0 02F83208#8E00 R
(1787223598.914472) can0 01F83100#300E1289 R
(1787223598.918557) can0 02F83207#33008C49068522 R
(1787223598.922561) can0 02F83202#00 R
(1787223598.925671) can0 01F83100#7B0E128A R
(1787223598.937398) can0 01F83100#7E0E128B R
(1787223598.949127) can0 01F83100#A60E128C R
(1787223598.960273) can0 01F83100#070F118D R
(1787223598.972004) can0 01F83100#030F118E R
(1787223598.980951) can0 03106300#55030101 R
(1787223598.982521) can0 03216401# R
(1787223598.983940) can0 01F83100#DC0E118F R
(1787223598.984366) can0 03FF1300#00 R
(1787223598.989731) can0 041A6401#0B0062179E02 R
(1787223598.995648) can0 01F83100#0F0F1190 R
(1787223599.006723) can0 01F83100#3A0F1191 R
(1787223599.011792) can0 02F83201#2802DC055C0D44FF R
(1787223599.012793) can0 02F83200#3455000F3A0F280A R
(1787223599.018498) can0 01F83100#3E0F1192 R
(1787223599.018919) can0 02F83207#33008C49068622 R
(1787223599.020797) can0 02F83204#01 R
(1787223599.022795) can0 02F83202#00 R
(1787223599.030317) can0 01F83100#750F1193 R
(1787223599.042054) can0 01F83100#980F1194 R
(1787223599.053137) can0 01F83100#7C0F1195 R
(1787223599.064859) can0 01F83100#7C0F1196 R
(1787223599.076596) can0 01F83100#980F1197 R
(1787223599.082716) can0 03106300#55030101 R
(1787223599.084286) can0 03216401# R
(1787223599.088418) can0 01F83100#800F1198 R
(1787223599.093075) can0 041A6401#0B0062179E02 R
(1787223599.099545) can0 01F83100#780F1199 R
(1787223599.111274) can0 01F83100#900F119A R
(1787223599.114025) can0 02F83208#9000 R
(1787223599.119030) can0 02F83207#33008C49068822 R
(1787223599.123024) can0 02F83202#00 R
(1787223599.123341) can0 01F83100#900F119B R
(1787223599.134828) can0 01F83100#8C0F119C R
(1787223599.145910) can0 01F83100#940F119D R
(1787223599.157681) can0 01F83100#9C0F119E R
(1787223599.169415) can0 01F83100#940F119F R
(1787223599.181146) can0 01F83100#940F11A0 R
(1787223599.182769) can0 03106300#55030101 R
(1787223599.184334) can0 03106303#05 R
(1787223599.185908) can0 03216401# R
(1787223599.192358) can0 01F83100#9C0F11A1 R
(1787223599.194392) can0 041A6401#0B0062179E02 R
(1787223599.204148) can0 01F83100#940F11A2 R
(1787223599.215951) can0 01F83100#940F11A3 R
(1787223599.219249) can0 02F83207#33008C49068A22 R
(1787223599.223244) can0 02F83202#00 R
(1787223599.227745) can0 01F83100#9C0F11A4 R
(1787223599.238822) can0 01F83100#980F11A5 R
(1787223599.246248) can0 04F83401#65FAA50D3E R
(1787223599.248642) can0 04F83400#682B6716342F64 R
(1787223599.250702) can0 01F83100#980F11A6 R
(1787223599.251119) can0 04F83402#04 R
(1787223599.262380) can0 02F83201#2802E7055C0D44FF R
(1787223599.262941) can0 01F83100#980F11A7 R
(1787223599.263442) can0 02F83200#3455000F980F280A R
(1787223599.273582) can0 01F83100#980F11A8 R
(1787223599.281514) can0 03106300#55030101 R
(1787223599.283084) can0 03216401# R
(1787223599.285402) can0 01F83100#940F11A9 R
(1787223599.292420) can0 041A6401#0B0062179E02 R
(1787223599.297193) can0 01F83100#980F11AA R
(1787223599.308929) can0 01F83100#8C0F11AB R
(1787223599.314458) can0 02F83208#9000 R
(1787223599.319465) can0 02F83207#33008C49068B22 R
(1787223599.320191) can0 01F83100#780F11AC R
(1787223599.323473) can0 02F83202#00 R
(1787223599.331815) can0 01F83100#880F11AD R
(1787223599.343546) can0 01F83100#780F11AE R
(1787223599.355279) can0 01F83100#0B0F11AF R
(1787223599.366348) can0 01F83100#E00E11B0 R
(1787223599.378075) can0 01F83100#B90E11B1 R
(1787223599.381568) can0 03106300#55030101 R
(1787223599.383133) can0 03216401# R
(1787223599.389889) can0 01F83100#090E11B2 R
(1787223599.390614) can0 041A6401#0B0062179E02 R
(1787223599.401704) can0 01F83100#CF0D11B3 R
(1787223599.413607) can0 20000080#0000020000000000
(1787223599.413226) can0 01F83100#DA0D11B4 R
(1787223599.420292) can0 02F83207#33008C49068D22 R
(1787223599.421753) can0 02F83204#01 R
(1787223599.423751) can0 02F83202#00 R
(1787223599.424721) can0 01F83100#3E0D11B5 R
(1787223599.436314) can0 01F83100#1B0D11B6 R
(1787223599.448042) can0 01F83100#6D0D11B7 R
(1787223599.459183) can0 01F83100#040D10B8 R
(1787223599.471348) can0 01F83100#E40C10B9 R
(1787223599.482128) can0 03106300#55030101 R
(1787223599.482798) can0 01F83100#2B0D10BA R
(1787223599.483712) can0 03216401# R
(1787223599.485281) can0 03FF1300#00 R
(1787223599.493464) can0 041A6401#0B0062179E02 R
(1787223599.494651) can0 01F83100#A60C10BB R
(1787223599.505616) can0 01F83100#630C10BC R
(1787223599.512982) can0 02F83201#2802E7055C0D44FF R
(1787223599.514515) can0 20000080#0000020000000001
(1787223599.515152) can0 02F83200#3455000F630C280A R
(1787223599.582925) can0 01F83100#8E0C10BD R
(1787223599.519984) can0 02F83207#33008C49068E22 R
(1787223599.523984) can0 02F83202#00 R
(1787223599.529171) can0 01F83100#190C10BE R
(1787223599.540895) can0 01F83100#D70B10BF R
(1787223599.551962) can0 01F83100#0D0C10C0 R
(1787223599.563685) can0 01F83100#B00B10C1 R
(1787223599.564106) can0 01F83101#0000E90456066D08 R
(1787223599.574655) can0 04F83401#2CFA9F0D3E R
(1787223599.575653) can0 01F83100#560B10C2 R
(1787223599.576070) can0 01F83102#400B980D780F0000 R
(1787223599.648650) can0 03106300#55030101 R
(1787223599.584680) can0 03216401# R
(1787223599.586781) can0 01F83100#750B10C3 R
(1787223599.587203) can0 01F83103#D204C00497047204 R
(1787223599.591895) can0 041A6401#0B0062179E02 R
(1787223599.598639) can0 01F83100#230B10C4 R
(1787223599.610368) can0 01F83100#BE0A10C5 R
(1787223599.613990) can0 20000080#0000020000000000
(1787223599.620212) can0 02F83207#33008C49069022 R
(1787223599.621599) can0 01F83100#B20A10C6 R
(1787223599.624210) can0 02F83202#00 R
(1787223599.633219) can0 01F83100#4C0A10C7 R
(1787223599.644980) can0 01F83100#F60910C8 R
(1787223599.656705) can0 01F83100#290A10C9 R
(1787223599.668432) can0 01F83100#020A10CA R
(1787223599.680232) can0 01F83100#990910CB R
(1787223599.683169) can0 03106300#55030101 R
(1787223599.684738) can0 03216401# R
(1787223599.691391) can0 01F83100#710910CC R
(1787223599.692341) can0 041A6401#0B0062179E02 R
(1787223599.703175) can0 01F83100#F80810CD R
(1787223599.714900) can0 01F83100#AE0810CE R
(1787223599.715505) can0 02F83208#9100 R
(1787223599.720444) can0 02F83207#33008C49069222 R
(1787223599.724438) can0 02F83202#00 R
(1787223599.726238) can0 01F83100#AA0810CF R
(1787223599.737772) can0 01F83100#450810D0 R
(1787223599.749496) can0 01F83100#FE0710D1 R
(1787223599.761218) can0 01F83100#DB0710D2 R
(1787223599.763573) can0 02F83201#2802C5055C0D44FF R
(1787223599.764578) can0 02F83200#3455000FDB07280A R
(1787223599.772998) can0 01F83100#7A0710D3 R
(1787223599.783750) can0 03106300#55030101 R
(1787223599.784166) can0 01F83100#620710D4 R
(1787223599.785332) can0 03216401# R
(1787223599.794246) can0 041A6401#0B0062179E02 R
(1787223599.795979) can0 01F83100#810710D5 R
(1787223599.807675) can0 01F83100#5E0710D6 R
(1787223599.819413) can0 01F83100#660710D7 R
(1787223599.820730) can0 02F83207#33008C49069422 R
(1787223599.822684) can0 02F83204#01 R
(1787223599.824690) can0 02F83202#00 R
(1787223599.830975) can0 20000080#0000000000000001
(1787223599.831025) can0 01F83100#C00710D8 R
(1787223599.842301) can0 01F83100#DF0710D9 R
(1787223599.854027) can0 01F83100#220810DA R
(1787223599.865785) can0 01F83100#770810DB R
(1787223599.877509) can0 01F83100#7F0810DC R
(1787223599.882419) can0 03106300#55030101 R
(1787223599.883988) can0 03216401# R
(1787223599.888666) can0 01F83100#B60810DD R
(1787223599.891710) can0 041A6401#0B0062179E02 R
(1787223599.900450) can0 01F83100#000910DE R
(1787223599.908768) can0 04F83401#2EFA9F0D3E R
(1787223599.910982) can0 04F83400#682B6316342F64 R
(1787223599.912470) can0 01F83100#D1080FDF R
(1787223599.915926) can0 02F83208#9200 R
(1787223599.920983) can0 02F83207#33008C49069622 R
(1787223599.923487) can0 01F83100#A6080FE0 R
(1787223599.924981) can0 02F83202#00 R
(1787223599.935244) can0 01F83100#68080FE1 R
(1787223599.946972) can0 01F83100#EF070FE2 R
(1787223599.958699) can0 01F83100#C4070FE3 R
(1787223599.969772) can0 01F83100#7D070FE4 R
(1787223599.981497) can0 01F83100#ED060FE5 R
(1787223599.982514) can0 03106300#55030101 R
(1787223599.984084) can0 03216401# R
(1787223599.985649) can0 03FF1300#00 R
(1787223599.992615) can0 041A6401#0B0062179E02 R
(1787223599.993517) can0 01F83100#9F060FE6 R
(1787223600.005142) can0 01F83100#5C060FE7 R
(1787223600.014215) can0 02F83201#0A029905700D44FF R
(1787223600.015208) can0 02F83200#3455000F5C06280A R
(1787223600.016604) can0 01F83100#1E060FE8 R
(1787223600.021205) can0 02F83207#2E008D93059822 R
(1787223600.025208) can0 02F83202#00 R
(1787223600.028514) can0 01F83100#0A060FE9 R
(1787223600.039786) can0 01F83100#C0050FEA R
(1787223600.051510) can0 01F83100#99050FEB R
(1787223600.062584) can0 01F83100#8D050FEC R
(1787223600.074346) can0 01F83100#4B050FED R
(1787223600.084241) can0 03106300#55030101 R
(1787223600.085810) can0 03216401# R
(1787223600.086311) can0 01F83100#3B050FEE R
(1787223600.094973) can0 041A6401#0B0062179E02 R
(1787223600.097937) can0 01F83100#2C050FEF R
(1787223600.109012) can0 01F83100#09050FF0 R
(1787223600.116441) can0 02F83208#9300 R
(1787223600.120835) can0 01F83100#18050FF1 R
(1787223600.121500) can0 02F83207#2E008D93059A22 R
(1787223600.125445) can0 02F83202#00 R
(1787223600.132619) can0 01F83100#05050FF2 R
(1787223600.144344) can0 01F83100#F1040FF3 R
(1787223600.155419) can0 01F83100#01050FF4 R
