(1787223560.372209) can0 01F83100#D2044690 R
(1787223560.378426) can0 03106300#55030101 R
(1787223560.379996) can0 03216401# R
(1787223560.381562) can0 03FF1300#00 R
(1787223560.384137) can0 01F83100#D2044591 R
(1787223560.386440) can0 041A6401#0B0062179E02 R
(1787223560.395259) can0 01F83100#D2044592 R
(1787223560.406985) can0 01F83100#D6044593 R
(1787223560.408251) can0 02F83203#9411C0019D08 R
(1787223560.410248) can0 02F83201#2A0A0000880E40FF R
(1787223560.411252) can0 02F83200#34430042D6048C0A R
(1787223560.412249) can0 02F83208#2A00 R
(1787223560.417263) can0 02F83207#C400393C018B1C R
(1787223560.418313) can0 01F83100#DA044594 R
(1787223560.421267) can0 02F83202#00 R
(1787223560.429964) can0 01F83100#DA044595 R
(1787223560.441690) can0 01F83100#DA044596 R
(1787223560.453484) can0 01F83100#DA044397 R
(1787223560.465208) can0 01F83100#D6044398 R
(1787223560.476930) can0 01F83100#DA044399 R
(1787223560.477347) can0 03106300#55030101 R
(1787223560.478841) can0 03216401# R
(1787223560.486700) can0 041A6401#0B0062179E02 R
(1787223560.488248) can0 01F83100#DE04439A R
(1787223560.499866) can0 01F83100#DE04439B R
(1787223560.511624) can0 01F83100#DE04439C R
(1787223560.517543) can0 02F83207#C400393C01901C R
(1787223560.519549) can0 02F83204#01 R
(1787223560.521551) can0 02F83202#00 R
(1787223560.522967) can0 01F83100#DE04419D R
(1787223560.534579) can0 01F83100#DA04419E R
(1787223560.546304) can0 01F83100#D204419F R
(1787223560.558021) can0 01F83100#D20441A0 R
(1787223560.569739) can0 01F83100#D20441A1 R
(1787223560.575051) can0 04F83401#F5FF720E3E R
(1787223560.577189) can0 04F83400#682B9C16342F64 R
(1787223560.580568) can0 03106300#55030101 R
(1787223560.580984) can0 01F83100#D60441A2 R
(1787223560.582154) can0 03106303#05 R
(1787223560.583724) can0 03216401# R
(1787223560.592810) can0 01F83100#D20441A3 R
(1787223560.595165) can0 041A6401#0B0062179E02 R
(1787223560.604588) can0 01F83100#D20441A4 R
(1787223560.612769) can0 02F83208#2200 R
(1787223560.615749) can0 01F83100#D2043FA5 R
(1787223560.617776) can0 02F83207#C400393C01951C R
(1787223560.621775) can0 02F83202#00 R
(1787223560.627527) can0 01F83100#D2043FA6 R
(1787223560.639251) can0 01F83100#D2043FA7 R
(1787223560.650972) can0 01F83100#D2043FA8 R
(1787223560.660861) can0 02F83201#D8090000880E41FF R
(1787223560.661866) can0 02F83200#3443003AD2048C0A R
(1787223560.662422) can0 01F83100#CE043FA9 R
(1787223560.673809) can0 01F83100#CA043FAA R
(1787223560.679507) can0 03106300#55030101 R
(1787223560.681077) can0 03216401# R
(1787223560.685617) can0 01F83100#CE043FAB R
(1787223560.687015) can0 041A6401#0B0062179E02 R
(1787223560.697392) can0 01F83100#CE043FAC R
(1787223560.704994) can0 02FF1200#00 R
(1787223560.708479) can0 01F83100#CE043FAD R
(1787223560.718005) can0 02F83207#BF003A4201971C R
(1787223560.785762) can0 01F83100#CE043FAE R
(1787223560.722004) can0 02F83202#00 R
(1787223560.731982) can0 01F83100#CA043FAF R
(1787223560.743705) can0 01F83100#C2043FB0 R
(1787223560.755428) can0 01F83100#B7043FB1 R
(1787223560.766491) can0 01F83100#9F043FB2 R
(1787223560.778214) can0 01F83100#78043FB3 R
(1787223560.778735) can0 03106300#55030101 R
(1787223560.780304) can0 03216401# R
(1787223560.788468) can0 041A6401#0B0062179E02 R
(1787223560.790264) can0 01F83100#740437B4 R
(1787223560.801219) can0 01F83100#8F0437B5 R
(1787223560.805232) can0 02F83205#0700 R
(1787223560.812966) can0 01F83100#970437B6 R
(1787223560.813383) can0 02F83208#0000 R
(1787223560.818239) can0 02F83207#BF003A4201971C R
(1787223560.822241) can0 02F83202#00 R
(1787223560.824608) can0 01F83100#930400B7 R
(1787223560.836066) can0 01F83100#930400B8 R
(1787223560.847526) can0 01F83100#930400B9 R
(1787223560.858985) can0 01F83100#970400BA R
(1787223560.871100) can0 01F83100#970400BB R
(1787223560.878798) can0 03106300#55030101 R
(1787223560.880368) can0 03216401# R
(1787223560.881938) can0 03FF1300#00 R
(1787223560.882812) can0 01F83100#970400BC R
(1787223560.886512) can0 041A6401#0B0062179E02 R
(1787223560.894207) can0 01F83100#970400BD R
(1787223560.905665) can0 01F83100#9B0400BE R
(1787223560.907419) can0 04F83401#F3FF770E3E R
(1787223560.911470) can0 02F83201#D8090000880E41FF R
(1787223560.912475) can0 02F83200#344300009B048C0A R
(1787223560.917228) can0 01F83100#9B0400BF R
(1787223560.918518) can0 02F83207#BF003A4201971C R
(1787223560.920487) can0 02F83204#01 R
(1787223560.922521) can0 02F83202#00 R
(1787223560.928772) can0 01F83100#9F0400C0 R
(1787223560.940233) can0 01F83100#A30400C1 R
(1787223560.952347) can0 01F83100#9F0400C2 R
(1787223560.963807) can0 01F83100#930400C3 R
(1787223560.975266) can0 01F83100#8F0400C4 R
(1787223560.981056) can0 03106300#55030101 R
(1787223560.982626) can0 03216401# R
(1787223560.986810) can0 01F83100#970400C5 R
(1787223560.992552) can0 041A6401#0B0062179E02 R
(1787223560.998325) can0 01F83100#930400C6 R
(1787223561.010440) can0 01F83100#8C0400C7 R
(1787223561.013720) can0 02F83208#0000 R
(1787223561.018760) can0 02F83207#BA003B4B01971C R
(1787223561.021953) can0 01F83100#880400C8 R
(1787223561.022774) can0 02F83202#00 R
(1787223561.033454) can0 01F83100#880400C9 R
(1787223561.044913) can0 01F83100#880400CA R
(1787223561.056372) can0 01F83100#840400CB R
(1787223561.067840) can0 01F83100#840400CC R
(1787223561.079693) can0 03106300#55030101 R
(1787223561.080109) can0 01F83100#880400CD R
(1787223561.081279) can0 03216401# R
(1787223561.091563) can0 01F83100#930400CE R
(1787223561.092384) can0 041A6401#0B0062179E02 R
(1787223561.103078) can0 01F83100#930400CF R
(1787223561.114539) can0 01F83100#840400D0 R
(1787223561.119004) can0 02F83207#BA003B4B01971C R
(1787223561.123001) can0 02F83202#00 R
(1787223561.126057) can0 01F83100#680400D1 R
(1787223561.137619) can0 01F83100#780400D2 R
(1787223561.149086) can0 01F83100#8F0400D3 R
(1787223561.161200) can0 01F83100#970400D4 R
(1787223561.162101) can0 02F83201#82090000880E41FF R
(1787223561.163098) can0 02F83200#3443000097048C0A R
(1787223561.172712) can0 01F83100#840400D5 R
(1787223561.179793) can0 03106300#55030101 R
(1787223561.181363) can0 03216401# R
(1787223561.184264) can0 01F83100#740400D6 R
(1787223561.187284) can0 041A6401#0B0062179E02 R
(1787223561.195783) can0 01F83100#800400D7 R
(1787223561.207248) can0 01F83100#880400D8 R
(1787223561.214248) can0 02F83208#0000 R
(1787223561.218733) can0 01F83100#6C0400D9 R
(1787223561.219306) can0 02F83207#BA003B4B01971C R
(1787223561.223250) can0 02F83202#00 R
(1787223561.230906) can0 01F83100#590400DA R
(1787223561.242368) can0 01F83100#6C0400DB R
(1787223561.244823) can0 04F83401#F3FF770E3E R
(1787223561.249256) can0 04F83400#682B9C16342F64 R
(1787223561.251422) can0 04F83402#04 R
(1787223561.253997) can0 01F83100#700400DC R
(1787223561.265458) can0 01F83100#650400DD R
(1787223561.276918) can0 01F83100#4D0400DE R
(1787223561.279923) can0 03106300#55030101 R
(1787223561.281493) can0 03216401# R
(1787223561.287923) can0 041A6401#0B0062179E02 R
(1787223561.288629) can0 01F83100#2E0400DF R
(1787223561.299986) can0 01F83100#1A0400E0 R
(1787223561.312102) can0 01F83100#1E0400E1 R
(1787223561.319498) can0 02F83207#B3003C5C01971C R
(1787223561.321500) can0 02F83204#01 R
(1787223561.323501) can0 02F83202#00 R
(1787223561.323817) can0 01F83100#160400E2 R
(1787223561.335106) can0 01F83100#1A0400E3 R
(1787223561.346564) can0 01F83100#410400E4 R
(1787223561.346994) can0 01F83101#0000E90456066D08 R
(1787223561.358098) can0 01F83100#5D0400E5 R
(1787223561.358528) can0 01F83102#400B980D780F0000 R
(1787223561.369631) can0 01F83100#320400E6 R
(1787223561.370056) can0 01F83103#D204C00497047204 R
(1787223561.380332) can0 03106300#55030101 R
(1787223561.381334) can0 01F83100#E40300E7 R
(1787223561.381920) can0 03216401# R
(1787223561.383486) can0 03FF1300#00 R
(1787223561.391585) can0 041A6401#0B0062179E02 R
(1787223561.393004) can0 01F83100#D00300E8 R
(1787223561.404945) can0 01F83100#F70300E9 R
(1787223561.412737) can0 02F83201#25090000880E41FF R
(1787223561.413743) can0 02F83200#34430000F7038C0A R
(1787223561.414740) can0 02F83208#0000 R
(1787223561.416485) can0 01F83100#0B0400EA R
(1787223561.419752) can0 02F83207#B3003C5C01971C R
(1787223561.423788) can0 02F83202#00 R
(1787223561.428005) can0 01F83100#030400EB R
(1787223561.439466) can0 01F83100#F30300EC R
(1787223561.450927) can0 01F83100#070400ED R
(1787223561.463042) can0 01F83100#2E0400EE R
(1787223561.474502) can0 01F83100#3A0400EF R
(1787223561.482103) can0 03106300#55030101 R
(1787223561.483669) can0 03216401# R
(1787223561.486047) can0 01F83100#2E0400F0 R
(1787223561.492526) can0 041A6401#0B0062179E02 R
(1787223561.497565) can0 01F83100#260400F1 R
(1787223561.509024) can0 01F83100#3D0400F2 R
(1787223561.520023) can0 02F83207#B3003C5C01971C R
(1787223561.520544) can0 01F83100#4D0400F3 R
(1787223561.524032) can0 02F83202#00 R
(1787223561.532656) can0 01F83100#2A0400F4 R
(1787223561.544116) can0 01F83100#EB0300F5 R
(1787223561.555587) can0 01F83100#D00300F6 R
(1787223561.567054) can0 01F83100#E40300F7 R
(1787223561.573320) can0 04F83401#F3FF780E3E R
(1787223561.578636) can0 01F83100#E80300F8 R
(1787223561.582657) can0 03106300#55030101 R
(1787223561.584227) can0 03216401# R
(1787223561.590188) can0 01F83100#D80300F9 R
(1787223561.592815) can0 041A6401#0B0062179E02 R
(1787223561.601707) can0 01F83100#B90300FA R
(1787223561.613817) can0 01F83100#C00300FB R
(1787223561.615260) can0 02F83208#0000 R
(1787223561.620267) can0 02F83207#B3003C5C01971C R
(1787223561.624263) can0 02F83202#00 R
(1787223561.625511) can0 01F83100#E00300FC R
(1787223561.636837) can0 01F83100#D40300FD R
(1787223561.648302) can0 01F83100#B90300FE R
(1787223561.659768) can0 01F83100#CC0300FF R
(1787223561.663365) can0 02F83201#25090000880E41FF R
(1787223561.664366) can0 02F83200#34430000CC038C0A R
(1787223561.671283) can0 01F83100#EF030000 R
(1787223561.681932) can0 03106300#55030101 R
(1787223561.682907) can0 01F83100#EF030001 R
(1787223561.683516) can0 03106303#05 R
(1787223561.685086) can0 03216401# R
(1787223561.694993) can0 01F83100#D4030002 R
(1787223561.696191) can0 041A6401#0B0062179E02 R
(1787223561.706515) can0 01F83100#CC030003 R
(1787223561.717984) can0 01F83100#D4030004 R
(1787223561.720515) can0 02F83207#A8003D7B01971C R
(1787223561.722513) can0 02F83204#01 R
(1787223561.724515) can0 02F83202#00 R
(1787223561.729536) can0 01F83100#C4030005 R
(1787223561.740997) can0 01F83100#BD030006 R
(1787223561.753125) can0 01F83100#D4030007 R
(1787223561.764595) can0 01F83100#D0030008 R
(1787223561.776056) can0 01F83100#B1030009 R
(1787223561.787305) can0 03106300#55030101 R
(1787223561.787722) can0 01F83100#9903000A R
(1787223561.788887) can0 03216401# R
(1787223561.799075) can0 01F83100#A103000B R
(1787223561.806990) can0 041A6401#0B0062179E02 R
(1787223561.810585) can0 01F83100#AD03000C R
(1787223561.815768) can0 02F83208#0000 R
(1787223561.820777) can0 02F83207#A8003D7B01971C R
(1787223561.822185) can0 01F83100#9503000D R
(1787223561.824780) can0 02F83202#00 R
(1787223561.899795) can0 01F83100#8E03000E R
(1787223561.845726) can0 01F83100#A903000F R
(1787223561.857188) can0 01F83100#C0030010 R
(1787223561.868658) can0 01F83100#C0030011 R
(1787223561.880773) can0 01F83100#B9030012 R
(1787223561.881198) can0 03106300#55030101 R
(1787223561.882508) can0 03216401# R
(1787223561.884078) can0 03FF1300#00 R
(1787223561.892360) can0 01F83100#B9030013 R
(1787223561.892785) can0 041A6401#0B0062179E02 R
(1787223561.903875) can0 01F83100#B9030014 R
(1787223561.907396) can0 04F83401#F4FF790E3E R
(1787223561.909687) can0 04F83400#682B9C16342F64 R
(1787223561.914027) can0 02F83201#8A080000880E41FF R
(1787223561.915028) can0 02F83200#34430000B9038C0A R
(1787223561.915801) can0 01F83100#AD030015 R
(1787223561.921043) can0 02F83207#A8003D7B01971C R
(1787223561.925048) can0 02F83202#00 R
(1787223561.927013) can0 01F83100#A9030016 R
(1787223561.938473) can0 01F83100#B5030017 R
(1787223561.949931) can0 01F83100#AD030018 R
(1787223561.962050) can0 01F83100#95030019 R
(1787223561.973520) can0 01F83100#9503001A R
(1787223561.981229) can0 03106300#55030101 R
(1787223561.982795) can0 03216401# R
(1787223561.985074) can0 01F83100#A503001B R
(1787223561.989935) can0 041A6401#0B0062179E02 R
(1787223561.996587) can0 01F83100#A903001C R
(1787223562.008043) can0 01F83100#A903001D R
(1787223562.016290) can0 02F83208#0000 R
(1787223562.019528) can0 01F83100#A903001E R
(1787223562.021331) can0 02F83207#A8003D7B01971C R
(1787223562.025335) can0 02F83202#00 R
(1787223562.031044) can0 01F83100#A103001F R
(1787223562.043167) can0 01F83100#99030020 R
(1787223562.054635) can0 01F83100#92030021 R
(1787223562.066104) can0 01F83100#8A030022 R
(1787223562.077572) can0 01F83100#86030023 R
(1787223562.081385) can0 03106300#55030101 R
(1787223562.082955) can0 03216401# R
(1787223562.089122) can0 01F83100#76030024 R
(1787223562.089547) can0 041A6401#0B0062179E02 R
(1787223562.101288) can0 01F83100#6E030025 R
(1787223562.112748) can0 01F83100#86030026 R
(1787223562.121581) can0 02F83207#9B003EA101971C R
(1787223562.123579) can0 02F83204#01 R
(1787223562.124405) can0 01F83100#A1030027 R
(1787223562.125583) can0 02F83202#00 R
(1787223562.135765) can0 01F83100#92030028 R
(1787223562.147230) can0 01F83100#7E030029 R
(1787223562.158689) can0 01F83100#8603002A R
(1787223562.164662) can0 02F83201#CA070000880E41FF R
(1787223562.165667) can0 02F83200#3443000086038C0A R
(1787223562.170862) can0 01F83100#9503002B R
(1787223562.182330) can0 01F83100#9203002C R
(1787223562.184434) can0 03106300#55030101 R
(1787223562.186004) can0 03216401# R
(1787223562.193667) can0 041A6401#0B0062179E02 R
(1787223562.194148) can0 01F83100#9203002D R
(1787223562.205407) can0 01F83100#A103002E R
(1787223562.216811) can0 02F83208#0000 R
(1787223562.217167) can0 01F83100#AD03002F R
(1787223562.221816) can0 02F83207#9B003EA101971C R
(1787223562.225809) can0 02F83202#00 R
(1787223562.228400) can0 01F83100#A9030030 R
(1787223562.240516) can0 01F83100#99030031 R
(1787223562.245117) can0 04F83401#F3FF790E3E R
(1787223562.247434) can0 04F83402#04 R
(1787223562.252092) can0 01F83100#8A030032 R
(1787223562.263561) can0 01F83100#82030033 R
(1787223562.275029) can0 01F83100#92030034 R
(1787223562.284834) can0 03106300#55030101 R
(1787223562.286400) can0 03216401# R
(1787223562.286677) can0 01F83100#A1030035 R
(1787223562.294182) can0 041A6401#0B0062179E02 R
(1787223562.298105) can0 01F83100#9D030036 R
(1787223562.309573) can0 01F83100#95030037 R
(1787223562.321695) can0 01F83100#8E030038 R
(1787223562.322120) can0 02F83207#9B003EA101971C R
(1787223562.326059) can0 02F83202#00 R
(1787223562.333221) can0 01F83100#8A030039 R
(1787223562.344689) can0 01F83100#8A03003A R
(1787223562.356155) can0 01F83100#8603003B R
(1787223562.367624) can0 01F83100#8603003C R
(1787223562.379746) can0 01F83100#9903003D R
(1787223562.380180) can0 01F83101#0000E90456066D08 R
(1787223562.384907) can0 03106300#55170101 R
(1787223562.386476) can0 03216401# R
(1787223562.388046) can0 03FF1300#00 R
(1787223562.390757) can0 01F83100#A503003E R
(1787223562.391186) can0 01F83102#400B980D780F0000 R
(1787223562.395174) can0 041A6401#0B0062179E02 R
(1787223562.403001) can0 01F83100#A103003F R
(1787223562.403430) can0 01F83103#D204C00497047204 R
(1787223562.413284) can0 02F83203#9411C0019D08 R
(1787223562.414050) can0 01F83100#A1030040 R
(1787223562.415292) can0 02F83201#CA070000880E41FF R
(1787223562.416288) can0 02F83200#34440000A103E40C R
(1787223562.417285) can0 02F83208#0000 R
(1787223562.422301) can0 02F83207#9B003EA101971C R
(1787223562.426140) can0 01F83100#A1030041 R
(1787223562.426570) can0 02F83202#00 R
(1787223562.437633) can0 01F83100#A5030042 R
(1787223562.449088) can0 01F83100#A9030043 R
(1787223562.460543) can0 01F83100#AD030044 R
(1787223562.472004) can0 01F83100#AD030045 R
(1787223562.483581) can0 03106300#55170101 R
(1787223562.484279) can0 01F83100#A1030046 R
(1787223562.485165) can0 03216401# R
(1787223562.495672) can0 01F83100#95030047 R
(1787223562.496955) can0 041A6401#0B0062179E02 R
(1787223562.507195) can0 01F83100#95030048 R
(1787223562.518664) can0 01F83100#8E030049 R
(1787223562.522584) can0 02F83207#9B003EA101971C R
(1787223562.524586) can0 02F83204#01 R
(1787223562.526591) can0 02F83202#00 R
(1787223562.530218) can0 01F83100#8203004A R
(1787223562.541675) can0 01F83100#7603004B R
(1787223562.553785) can0 01F83100#7603004C R
(1787223562.565246) can0 01F83100#7E03004D R
(1787223562.574127) can0 04F83401#F4FF790E3E R
(1787223562.576353) can0 04F83400#682B9C16342F64 R
(1787223562.576874) can0 01F83100#7A03004E R
(1787223562.582977) can0 03106300#55150101 R
(1787223562.584547) can0 03216401# R
(1787223562.588359) can0 01F83100#6E03004F R
(1787223562.593957) can0 041A6401#0B0062179E02 R
(1787223562.599874) can0 01F83100#82030050 R
(1787223562.611337) can0 01F83100#99030051 R
(1787223562.617823) can0 02F83208#0000 R
(1787223562.622836) can0 02F83207#8C003FDB01971C R
(1787223562.623649) can0 01F83100#82030052 R
(1787223562.626833) can0 02F83202#00 R
(1787223562.635001) can0 01F83100#72030053 R
(1787223562.646460) can0 01F83100#82030054 R
(1787223562.657929) can0 01F83100#92030055 R
(1787223562.665925) can0 02F83201#F3060000880E41FF R
(1787223562.666926) can0 02F83200#3444000092033C0F R
(1787223562.669449) can0 01F83100#95030056 R
(1787223562.680918) can0 01F83100#86030057 R
(1787223562.683085) can0 03106300#55150101 R
(1787223562.684655) can0 03216401# R
(1787223562.692232) can0 041A6401#0B0062179E02 R
(1787223562.693287) can0 01F83100#8A030058 R
(1787223562.704646) can0 01F83100#A9030059 R
(1787223562.710059) can0 02FF1200#00 R
(1787223562.716125) can0 01F83100#B103005A R
(1787223562.723071) can0 02F83207#8C003FDB01971C R
(1787223562.727071) can0 02F83202#00 R
(1787223562.727776) can0 01F83100#9203005B R
(1787223562.739112) can0 01F83100#8603005C R
(1787223562.750580) can0 01F83100#9D03005D R
(1787223562.762705) can0 01F83100#9D03005E R
(1787223562.774168) can0 01F83100#7A03005F R
(1787223562.783630) can0 03106300#55150101 R
(1787223562.785200) can0 03106303#05 R
(1787223562.785829) can0 01F83100#6E030060 R
(1787223562.786783) can0 03216401# R
(1787223562.797211) can0 01F83100#86030061 R
(1787223562.807474) can0 041A6401#0B0062179E02 R
(1787223562.808753) can0 01F83100#8A030062 R
(1787223562.810299) can0 02F83205#0700 R
(1787223562.818302) can0 02F83208#0000 R
(1787223562.820248) can0 01F83100#6B030063 R
(1787223562.823312) can0 02F83207#8C003FDB01971C R
(1787223562.827320) can0 02F83202#00 R
(1787223562.831765) can0 01F83100#57030064 R
(1787223562.843888) can0 01F83100#5F030065 R
(1787223562.855348) can0 01F83100#67030066 R
(1787223562.866805) can0 01F83100#6B030067 R
(1787223562.878267) can0 01F83100#76030068 R
(1787223562.883887) can0 03106300#55150101 R
(1787223562.885457) can0 03216401# R
(1787223562.887027) can0 03FF1300#00 R
(1787223562.889856) can0 01F83100#8A030069 R
(1787223562.893984) can0 041A6401#0B0062179E02 R
(1787223562.901379) can0 01F83100#9D03006A R
(1787223562.906649) can0 04F83401#F4FF7A0E3E R
(1787223562.913560) can0 01F83100#A103006B R
(1787223562.916555) can0 02F83201#F3060000880E41FF R
(1787223562.917556) can0 02F83200#34440000A1033C0F R
(1787223562.923569) can0 02F83207#8C003FDB01971C R
(1787223562.924587) can0 01F83100#9503006C R
(1787223562.925605) can0 02F83204#01 R
(1787223562.927575) can0 02F83202#00 R
(1787223562.936630) can0 01F83100#8E03006D R
(1787223563.013635) can0 01F83100#9903006E R
(1787223562.959567) can0 01F83100#A103006F R
(1787223562.971031) can0 01F83100#A1030070 R
(1787223562.983153) can0 01F83100#9D030071 R
(1787223562.985581) can0 03106300#55150101 R
(1787223562.987151) can0 03216401# R
(1787223562.994708) can0 01F83100#A1030072 R
(1787223562.995939) can0 041A6401#0B0062179E02 R
(1787223563.006231) can0 01F83100#A5030073 R
(1787223563.017694) can0 01F83100#A5030074 R
(1787223563.018840) can0 02F83208#0000 R
(1787223563.023853) can0 02F83207#8C003FDB01971C R
(1787223563.027857) can0 02F83202#00 R
(1787223563.029257) can0 01F83100#A1030075 R
(1787223563.040708) can0 01F83100#95030076 R
(1787223563.052832) can0 01F83100#8E030077 R
(1787223563.064302) can0 01F83100#8E030078 R
(1787223563.075774) can0 01F83100#82030079 R
(1787223563.085755) can0 03106300#55150101 R
(1787223563.087308) can0 01F83100#7A03007A R
(1787223563.087733) can0 03216401# R
(1787223563.097524) can0 041A6401#0B0062179E02 R
(1787223563.098888) can0 01F83100#7603007B R
(1787223563.110293) can0 01F83100#7A03007C R
(1787223563.122408) can0 01F83100#8203007D R
(1787223563.124119) can0 02F83207#8C003FDB01971C R
(1787223563.128119) can0 02F83202#00 R
(1787223563.133930) can0 01F83100#7A03007E R
(1787223563.145389) can0 01F83100#6703007F R
(1787223563.156855) can0 01F83100#53030080 R
(1787223563.167221) can0 02F83201#FF050000880E41FF R
(1787223563.168222) can0 02F83200#3444000053033C0F R
(1787223563.168783) can0 01F83100#5F030081 R
(1787223563.180498) can0 01F83100#8E030082 R
(1787223563.186163) can0 03106300#55150101 R
(1787223563.187730) can0 03216401# R
(1787223563.192056) can0 01F83100#8A030083 R
(1787223563.196050) can0 041A6401#0B0062179E02 R
(1787223563.203574) can0 01F83100#63030084 R
(1787223563.215042) can0 01F83100#5B030085 R
(1787223563.219375) can0 02F83208#0000 R
(1787223563.224382) can0 02F83207#7B00402F02971C R
(1787223563.226556) can0 01F83100#86030086 R
(1787223563.228380) can0 02F83202#00 R
(1787223563.238061) can0 01F83100#A1030087 R
(1787223563.244714) can0 04F83401#F4FF7A0E3E R
(1787223563.247353) can0 04F83400#682B9C16342F64 R
(1787223563.249643) can0 01F83100#82030088 R
(1787223563.251603) can0 04F83402#04 R
(1787223563.261164) can0 01F83100#72030089 R
(1787223563.273282) can0 01F83100#9203008A R
(1787223563.284754) can0 01F83100#9D03008B R
(1787223563.286321) can0 03106300#55150101 R
(1787223563.287892) can0 03216401# R
(1787223563.296270) can0 041A6401#0B0062179E02 R
(1787223563.296751) can0 01F83100#8E03008C R
(1787223563.307839) can0 01F83100#8A03008D R
(1787223563.319309) can0 01F83100#9D03008E R
(1787223563.324654) can0 02F83207#7B00402F02971C R
(1787223563.326656) can0 02F83204#01 R
(1787223563.328658) can0 02F83202#00 R
(1787223563.330853) can0 01F83100#A903008F R
(1787223563.342969) can0 01F83100#A5030090 R
(1787223563.354435) can0 01F83100#99030091 R
