(1787223557.064910) can0 01F83100#270B4473 R
(1787223557.071906) can0 03106300#55030101 R
(1787223557.073472) can0 03216401# R
(1787223557.076798) can0 01F83100#8B0A4474 R
(1787223557.079009) can0 041A6401#0B0062179E02 R
(1787223557.087929) can0 01F83100#CF094475 R
(1787223557.099650) can0 01F83100#CD084476 R
(1787223557.109038) can0 02F83207#B3002E44018B1B R
(1787223557.111400) can0 01F83100#E3074477 R
(1787223557.113034) can0 02F83202#00 R
(1787223557.123194) can0 01F83100#FD064478 R
(1787223557.134338) can0 01F83100#78064579 R
(1787223557.146065) can0 01F83100#0A06457A R
(1787223557.152128) can0 02F83201#6C091F05840D40FF R
(1787223557.153129) can0 02F83200#344000460A068C0A R
(1787223557.157843) can0 01F83100#DC05457B R
(1787223557.169599) can0 01F83100#9D05457C R
(1787223557.171165) can0 03106300#55030101 R
(1787223557.172731) can0 03216401# R
(1787223557.180043) can0 041A6401#0B0062179E02 R
(1787223557.246529) can0 01F83100#9505457D R
(1787223557.192611) can0 01F83100#9905457E R
(1787223557.204279) can0 02F83208#3B02 R
(1787223557.204627) can0 01F83100#D405457F R
(1787223557.209285) can0 02F83207#B3002E4401931B R
(1787223557.213285) can0 02F83202#00 R
(1787223557.216141) can0 01F83100#1E064580 R
(1787223557.216571) can0 01F83101#0000E90456066D08 R
(1787223557.227321) can0 01F83100#78064581 R
(1787223557.227746) can0 01F83102#400B980D780F0000 R
(1787223557.239189) can0 01F83100#ED064582 R
(1787223557.239615) can0 01F83103#D204C00497047204 R
(1787223557.242743) can0 04F83401#79FAAF0D3E R
(1787223557.247160) can0 04F83400#682BA716342F64 R
(1787223557.249574) can0 04F83402#04 R
(1787223557.250613) can0 01F83100#5A074583 R
(1787223557.262234) can0 01F83100#FA074584 R
(1787223557.271322) can0 03106300#55030101 R
(1787223557.272888) can0 03106303#05 R
(1787223557.274191) can0 01F83100#A2084585 R
(1787223557.274608) can0 03216401# R
(1787223557.284894) can0 041A6401#0B0062179E02 R
(1787223557.285374) can0 01F83100#62094586 R
(1787223557.297036) can0 01F83100#210A4587 R
(1787223557.308765) can0 01F83100#EC0A4588 R
(1787223557.309530) can0 02F83207#B9002F3A019B1B R
(1787223557.311528) can0 02F83204#01 R
(1787223557.313522) can0 02F83202#00 R
(1787223557.320570) can0 01F83100#8D0B4589 R
(1787223557.331672) can0 01F83100#310C458A R
(1787223557.343468) can0 01F83100#960C458B R
(1787223557.355189) can0 01F83100#A20C458C R
(1787223557.366910) can0 01F83100#A20C458D R
(1787223557.370318) can0 03106300#55030101 R
(1787223557.371888) can0 03216401# R
(1787223557.373454) can0 03FF1300#00 R
(1787223557.378145) can0 01F83100#F40C458E R
(1787223557.379062) can0 041A6401#0B0062179E02 R
(1787223557.390086) can0 01F83100#170D458F R
(1787223557.401814) can0 01F83100#FC0C4590 R
(1787223557.402764) can0 02F83201#B809E7048E0D40FF R
(1787223557.403761) can0 02F83200#34400047FC0C8C0A R
(1787223557.404754) can0 02F83208#4502 R
(1787223557.409762) can0 02F83207#B9002F3A01A21B R
(1787223557.412988) can0 01F83100#AE0C4591 R
(1787223557.413769) can0 02F83202#00 R
(1787223557.424746) can0 01F83100#830C4592 R
(1787223557.436508) can0 01F83100#6F0C4593 R
(1787223557.447649) can0 01F83100#7B0C4694 R
(1787223557.459369) can0 01F83100#250C4695 R
(1787223557.470553) can0 03106300#55030101 R
(1787223557.471258) can0 01F83100#BB0B4696 R
(1787223557.472140) can0 03216401# R
(1787223557.480471) can0 041A6401#0B0062179E02 R
(1787223557.482994) can0 01F83100#270B4697 R
(1787223557.494140) can0 01F83100#770A4698 R
(1787223557.505864) can0 01F83100#95094699 R
(1787223557.510040) can0 02F83207#B9002F3A01AA1B R
(1787223557.514047) can0 02F83202#00 R
(1787223557.517644) can0 01F83100#DD08469A R
(1787223557.529399) can0 01F83100#2508469B R
(1787223557.540541) can0 01F83100#9D07469C R
(1787223557.552268) can0 01F83100#E506469D R
(1787223557.563996) can0 01F83100#5106469E R
(1787223557.570587) can0 03106300#55030101 R
(1787223557.572156) can0 03216401# R
(1787223557.575512) can0 04F83401#BDFABF0D3E R
(1787223557.575964) can0 01F83100#EB05469F R
(1787223557.579568) can0 041A6401#0B0062179E02 R
(1787223557.587023) can0 01F83100#D80546A0 R
(1787223557.598823) can0 01F83100#B40547A1 R
(1787223557.605278) can0 02F83208#1902 R
(1787223557.610290) can0 02F83207#BD00303401B21B R
(1787223557.610806) can0 01F83100#A50547A2 R
(1787223557.614282) can0 02F83202#00 R
(1787223557.621695) can0 01F83100#A90547A3 R
(1787223557.633451) can0 01F83100#FF0547A4 R
(1787223557.645246) can0 01F83100#550647A5 R
(1787223557.653357) can0 02F83201#F8098304A20D40FF R
(1787223557.654358) can0 02F83200#3440004855068C0A R
(1787223557.656528) can0 01F83100#AB0647A6 R
(1787223557.668103) can0 01F83100#240747A7 R
(1787223557.670694) can0 03106300#55030101 R
(1787223557.672264) can0 03216401# R
(1787223557.678936) can0 041A6401#0B0062179E02 R
(1787223557.680078) can0 01F83100#B00747A8 R
(1787223557.691729) can0 01F83100#250847A9 R
(1787223557.703530) can0 01F83100#C20847AA R
(1787223557.710505) can0 02F83207#BD00303401B91B R
(1787223557.712503) can0 02F83204#01 R
(1787223557.714508) can0 02F83202#00 R
(1787223557.714824) can0 01F83100#6E0947AB R
(1787223557.726414) can0 01F83100#1D0A47AC R
(1787223557.738177) can0 01F83100#9E0A47AD R
(1787223557.749315) can0 01F83100#F40A48AE R
(1787223557.761042) can0 01F83100#000B48AF R
(1787223557.836588) can0 03106300#55030101 R
(1787223557.772618) can0 03216401# R
(1787223557.772895) can0 01F83100#0C0B48B0 R
(1787223557.779453) can0 041A6401#0B0062179E02 R
(1787223557.784672) can0 01F83100#460B48B1 R
(1787223557.795815) can0 01F83100#890B48B2 R
(1787223557.805729) can0 02F83208#0F02 R
(1787223557.807626) can0 01F83100#690B48B3 R
(1787223557.810742) can0 02F83207#BD00303401C11B R
(1787223557.814733) can0 02F83202#00 R
(1787223557.819354) can0 01F83100#270B48B4 R
(1787223557.831082) can0 01F83100#F40A48B5 R
(1787223557.842183) can0 01F83100#DD0A48B6 R
(1787223557.853986) can0 01F83100#AA0A48B7 R
(1787223557.865711) can0 01F83100#5C0A48B8 R
(1787223557.871211) can0 03106300#55030101 R
(1787223557.872781) can0 03216401# R
(1787223557.874347) can0 03FF1300#00 R
(1787223557.877570) can0 01F83100#F60948B9 R
(1787223557.880313) can0 041A6401#0B0062179E02 R
(1787223557.888730) can0 01F83100#810948BA R
(1787223557.900524) can0 01F83100#040948BB R
(1787223557.903966) can0 02F83201#190A8E04980D40FF R
(1787223557.905014) can0 02F83200#3440004804098C0A R
(1787223557.907844) can0 04F83401#29FBC70D3E R
(1787223557.910283) can0 04F83400#682BA416342F64 R
(1787223557.911031) can0 02F83207#C000313201C91B R
(1787223557.912069) can0 01F83100#B60848BC R
(1787223557.914968) can0 02F83202#00 R
(1787223557.923526) can0 01F83100#5C0848BD R
(1787223557.935250) can0 01F83100#AC0748BE R
(1787223557.947081) can0 01F83100#ED0648BF R
(1787223557.958808) can0 01F83100#870648C0 R
(1787223557.969876) can0 01F83100#510648C1 R
(1787223557.973384) can0 03106300#55030101 R
(1787223557.974954) can0 03216401# R
(1787223557.980619) can0 041A6401#0B0062179E02 R
(1787223557.981850) can0 01F83100#0A0648C2 R
(1787223557.993499) can0 01F83100#D40548C3 R
(1787223558.004644) can0 01F83100#A90548C4 R
(1787223558.006194) can0 02F83208#1402 R
(1787223558.011254) can0 02F83207#C000313201D11B R
(1787223558.015250) can0 02F83202#00 R
(1787223558.016577) can0 01F83100#B80548C5 R
(1787223558.028173) can0 01F83100#F30548C6 R
(1787223558.039933) can0 01F83100#600648C7 R
(1787223558.051074) can0 01F83100#CA0649C8 R
(1787223558.062803) can0 01F83100#560749C9 R
(1787223558.072613) can0 03106300#55030101 R
(1787223558.074183) can0 03216401# R
(1787223558.074780) can0 01F83100#E30749CA R
(1787223558.080426) can0 041A6401#0B0062179E02 R
(1787223558.086399) can0 01F83100#680849CB R
(1787223558.097572) can0 01F83100#180949CC R
(1787223558.109302) can0 01F83100#F60949CD R
(1787223558.111493) can0 02F83207#C000313201D91B R
(1787223558.113491) can0 02F83204#01 R
(1787223558.115493) can0 02F83202#00 R
(1787223558.121116) can0 01F83100#B20A49CE R
(1787223558.132847) can0 01F83100#4E0B49CF R
(1787223558.143951) can0 01F83100#F60B49D0 R
(1787223558.154638) can0 02F83201#190A8304A20D40FF R
(1787223558.155591) can0 02F83200#34400049F60B8C0A R
(1787223558.156156) can0 01F83100#3C0C4AD1 R
(1787223558.167524) can0 01F83100#110C4AD2 R
(1787223558.172724) can0 03106300#55030101 R
(1787223558.174293) can0 03216401# R
(1787223558.178683) can0 01F83100#FA0B4AD3 R
(1787223558.179949) can0 041A6401#0B0062179E02 R
(1787223558.190497) can0 01F83100#150C4AD4 R
(1787223558.202296) can0 01F83100#060C4AD5 R
(1787223558.206743) can0 02F83208#DC01 R
(1787223558.211747) can0 02F83207#C300322D01E11B R
(1787223558.213584) can0 01F83100#BB0B4AD6 R
(1787223558.215743) can0 02F83202#00 R
(1787223558.225181) can0 01F83100#790B4AD7 R
(1787223558.236940) can0 01F83100#650B4AD8 R
(1787223558.241594) can0 04F83401#39FBCA0D3E R
(1787223558.243964) can0 04F83402#04 R
(1787223558.248851) can0 01F83100#5A0B4AD9 R
(1787223558.249277) can0 01F83101#0000E90456066D08 R
(1787223558.260003) can0 01F83100#330B4ADA R
(1787223558.260416) can0 01F83102#400B980D780F0000 R
(1787223558.271810) can0 01F83100#170B4ADB R
(1787223558.272231) can0 01F83103#D204C00497047204 R
(1787223558.273366) can0 03106300#55030101 R
(1787223558.274936) can0 03216401# R
(1787223558.283704) can0 041A6401#0B0062179E02 R
(1787223558.284185) can0 01F83100#F80A4ADC R
(1787223558.294870) can0 01F83100#C90A4ADD R
(1787223558.306666) can0 01F83100#390A4ADE R
(1787223558.311995) can0 02F83207#C300322D01E91B R
(1787223558.315991) can0 02F83202#00 R
(1787223558.318455) can0 01F83100#47094ADF R
(1787223558.329527) can0 01F83100#77084AE0 R
(1787223558.341283) can0 01F83100#AC074AE1 R
(1787223558.353083) can0 01F83100#E5064AE2 R
(1787223558.364808) can0 01F83100#4D064AE3 R
(1787223558.372072) can0 03106300#55030101 R
(1787223558.373642) can0 03106303#05 R
(1787223558.375208) can0 03216401# R
(1787223558.376127) can0 01F83100#EF054AE4 R
(1787223558.376796) can0 03FF1300#00 R
(1787223558.382721) can0 041A6401#0B0062179E02 R
(1787223558.387826) can0 01F83100#99054AE5 R
(1787223558.399654) can0 01F83100#57054AE6 R
(1787223558.403278) can0 02F83203#9411C0019D08 R
(1787223558.405228) can0 02F83201#3B0A8304A20D40FF R
(1787223558.406233) can0 02F83200#3441004A57058C0A R
(1787223558.407226) can0 02F83208#DE01 R
(1787223558.410833) can0 01F83100#4B054AE7 R
(1787223558.412235) can0 02F83207#C300322D01F11B R
(1787223558.416235) can0 02F83202#00 R
(1787223558.422616) can0 01F83100#66054AE8 R
(1787223558.434338) can0 01F83100#7E054AE9 R
(1787223558.446100) can0 01F83100#9D054AEA R
(1787223558.457245) can0 01F83100#BC054AEB R
(1787223558.468974) can0 01F83100#F3054AEC R
(1787223558.475335) can0 03106300#55030101 R
(1787223558.476904) can0 03216401# R
(1787223558.480784) can0 01F83100#3D064AED R
(1787223558.484193) can0 041A6401#0B0062179E02 R
(1787223558.492607) can0 01F83100#8F064AEE R
(1787223558.503749) can0 01F83100#CE064AEF R
(1787223558.512530) can0 02F83207#C500332B01F91B R
(1787223558.514539) can0 02F83204#01 R
(1787223558.515666) can0 01F83100#28074AF0 R
(1787223558.516540) can0 02F83202#00 R
(1787223558.527289) can0 01F83100#91074AF1 R
(1787223558.539044) can0 01F83100#02084AF2 R
(1787223558.550187) can0 01F83100#5C084AF3 R
(1787223558.561908) can0 01F83100#93084AF4 R
(1787223558.573316) can0 04F83401#74FBD10D3E R
(1787223558.573764) can0 01F83100#C6084AF5 R
(1787223558.575423) can0 03106300#55030101 R
(1787223558.576004) can0 04F83400#682BA116342F64 R
(1787223558.577009) can0 03216401# R
(1787223558.584289) can0 041A6401#0B0062179E02 R
(1787223558.585066) can0 01F83100#DD084AF6 R
(1787223558.596716) can0 01F83100#F8084AF7 R
(1787223558.607772) can0 02F83208#DE01 R
(1787223558.608679) can0 01F83100#1F094AF8 R
(1787223558.612782) can0 02F83207#C500332B01011C R
(1787223558.616781) can0 02F83202#00 R
(1787223558.619666) can0 01F83100#27094AF9 R
(1787223558.631390) can0 01F83100#FC084AFA R
(1787223558.643151) can0 01F83100#DD084AFB R
(1787223558.654943) can0 01F83100#CD084BFC R
(1787223558.655872) can0 02F83201#560A8304A20D40FF R
(1787223558.656869) can0 02F83200#3441004ACD088C0A R
(1787223558.666068) can0 01F83100#BE084BFD R
(1787223558.675836) can0 03106300#55030101 R
(1787223558.677405) can0 03216401# R
(1787223558.677994) can0 01F83100#BE084BFE R
(1787223558.683455) can0 041A6401#0B0062179E02 R
(1787223558.689681) can0 01F83100#8F084BFF R
(1787223558.700003) can0 02FF1200#00 R
(1787223558.700981) can0 01F83100#3D084B00 R
(1787223558.712563) can0 01F83100#C0074B01 R
(1787223558.713080) can0 02F83207#C500332B01091C R
(1787223558.717012) can0 02F83202#00 R
(1787223558.724346) can0 01F83100#37074B02 R
(1787223558.736069) can0 01F83100#B2064B03 R
(1787223558.747828) can0 01F83100#5C064B04 R
(1787223558.759056) can0 01F83100#F3054B05 R
(1787223558.770778) can0 01F83100#A5054B06 R
(1787223558.775888) can0 03106300#55030101 R
(1787223558.777453) can0 03216401# R
(1787223558.782584) can0 01F83100#7E054B07 R
(1787223558.783962) can0 041A6401#0B0062179E02 R
(1787223558.793737) can0 01F83100#66054B08 R
(1787223558.800239) can0 02F83205#0700 R
(1787223558.805555) can0 01F83100#62054B09 R
(1787223558.808234) can0 02F83208#CD01 R
(1787223558.813239) can0 02F83207#C700342A01111C R
(1787223558.817239) can0 02F83202#00 R
(1787223558.817555) can0 01F83100#76054B0A R
(1787223558.829087) can0 01F83100#95054B0B R
(1787223558.840191) can0 01F83100#91054B0C R
(1787223558.851985) can0 01F83100#B8054B0D R
(1787223558.863710) can0 01F83100#16064B0E R
(1787223558.873314) can0 03106300#55030101 R
(1787223558.874884) can0 03216401# R
(1787223558.875638) can0 01F83100#45064B0F R
(1787223558.876467) can0 03FF1300#00 R
(1787223558.882454) can0 041A6401#0B0062179E02 R
(1787223558.886694) can0 01F83100#64064B10 R
(1787223558.898523) can0 01F83100#AB064B11 R
(1787223558.906484) can0 02F83201#670A6204A20D40FF R
(1787223558.907485) can0 02F83200#3441004AAB068C0A R
(1787223558.908042) can0 04F83401#7AFBD20D3E R
(1787223558.909823) can0 01F83100#E5064B12 R
(1787223558.913492) can0 02F83207#C700342A01191C R
(1787223558.915486) can0 02F83204#01 R
(1787223558.917488) can0 02F83202#00 R
(1787223558.921520) can0 01F83100#04074B13 R
(1787223558.933248) can0 01F83100#3B074B14 R
(1787223558.945014) can0 01F83100#A1074B15 R
(1787223558.956153) can0 01F83100#FA074B16 R
(1787223558.967874) can0 01F83100#16084B17 R
(1787223558.974195) can0 03106300#55030101 R
(1787223558.975765) can0 03216401# R
(1787223558.979685) can0 01F83100#02084B18 R
(1787223558.981340) can0 041A6401#0B0062179E02 R
(1787223558.991494) can0 01F83100#F7074B19 R
(1787223559.002638) can0 01F83100#1E084B1A R
(1787223559.008725) can0 02F83208#1B01 R
(1787223559.013783) can0 02F83207#C700342A01211C R
(1787223559.014552) can0 01F83100#41084B1B R
(1787223559.017788) can0 02F83202#00 R
(1787223559.026175) can0 01F83100#F3074B1C R
(1787223559.037937) can0 01F83100#8D074B1D R
(1787223559.049080) can0 01F83100#76074B1E R
(1787223559.060809) can0 01F83100#91074B1F R
(1787223559.072537) can0 01F83100#6E074B20 R
(1787223559.074268) can0 03106300#55030101 R
(1787223559.075833) can0 03216401# R
(1787223559.082108) can0 041A6401#0B0062179E02 R
(1787223559.083776) can0 01F83100#24074B21 R
(1787223559.095509) can0 01F83100#E5064B22 R
(1787223559.107306) can0 01F83100#93064B23 R
(1787223559.114026) can0 02F83207#C700352B01291C R
(1787223559.118026) can0 02F83202#00 R
(1787223559.119221) can0 01F83100#31064B24 R
(1787223559.130813) can0 01F83100#E3054B25 R
(1787223559.141918) can0 01F83100#A1054B26 R
(1787223559.153715) can0 01F83100#6A054B27 R
(1787223559.157115) can0 02F83201#670AF303B60D40FF R
(1787223559.158116) can0 02F83200#3441004B6A058C0A R
(1787223559.165487) can0 01F83100#4B054B28 R
(1787223559.174833) can0 03106300#55030101 R
(1787223559.176399) can0 03216401# R
(1787223559.176852) can0 01F83100#37054B29 R
(1787223559.183424) can0 041A6401#0B0062179E02 R
(1787223559.188459) can0 01F83100#20054B2A R
(1787223559.200261) can0 01F83100#01054B2B R
(1787223559.209267) can0 02F83208#1C01 R
(1787223559.212012) can0 01F83100#F1044B2C R
(1787223559.214275) can0 02F83207#C700352B01311C R
(1787223559.218271) can0 02F83202#00 R
(1787223559.223137) can0 01F83100#FD044B2D R
(1787223559.234870) can0 01F83100#01054B2E R
(1787223559.242522) can0 04F83401#77FBD10D3E R
(1787223559.244887) can0 04F83400#682B9F16342F64 R
(1787223559.246969) can0 01F83100#F1044B2F R
(1787223559.248983) can0 04F83402#04 R
(1787223559.257938) can0 01F83100#F9044B30 R
(1787223559.269668) can0 01F83100#10054B31 R
(1787223559.276762) can0 03106300#55030101 R
(1787223559.343868) can0 03216401# R
(1787223559.281481) can0 01F83100#09054B32 R
(1787223559.281906) can0 01F83101#0000E90456066D08 R
(1787223559.285840) can0 041A6401#0B0062179E02 R
(1787223559.292715) can0 01F83100#F1044B33 R
(1787223559.293133) can0 01F83102#400B980D780F0000 R
(1787223559.304586) can0 01F83100#DE044B34 R
(1787223559.305008) can0 01F83103#D204C00497047204 R
(1787223559.314518) can0 02F83207#C700352B01391C R
(1787223559.315897) can0 01F83100#E5044B35 R
(1787223559.316522) can0 02F83204#01 R
(1787223559.318516) can0 02F83202#00 R
(1787223559.327542) can0 01F83100#05054B36 R
(1787223559.339304) can0 01F83100#20054B37 R
(1787223559.351097) can0 01F83100#43054B38 R
(1787223559.362821) can0 01F83100#82054B39 R
(1787223559.373893) can0 01F83100#9D054B3A R
(1787223559.376886) can0 03106300#55030101 R
(1787223559.378452) can0 03216401# R
(1787223559.380030) can0 03FF1300#00 R
(1787223559.384058) can0 041A6401#0B0062179E02 R
(1787223559.385863) can0 01F83100#AD054B3B R
(1787223559.397632) can0 01F83100#C4054B3C R
(1787223559.407769) can0 02F83201#670AE802F20D40FF R
(1787223559.408762) can0 02F83200#3442004BC4058C0A R
(1787223559.474855) can0 01F83100#F3054B3D R
(1787223559.409817) can0 02F83208#DC00 R
(1787223559.414760) can0 02F83207#C800362901421C R
(1787223559.418768) can0 02F83202#00 R
(1787223559.420674) can0 01F83100#0A064B3E R
(1787223559.432292) can0 01F83100#F7054B3F R
(1787223559.444047) can0 01F83100#E7054B40 R
(1787223559.455191) can0 01F83100#F7054B41 R
(1787223559.466920) can0 01F83100#2A064B42 R
(1787223559.475427) can0 03106300#55030101 R
(1787223559.476992) can0 03106303#05 R
(1787223559.478562) can0 03216401# R
(1787223559.479035) can0 01F83100#51064B43 R
(1787223559.486088) can0 041A6401#0B0062179E02 R
(1787223559.490594) can0 01F83100#78064B44 R
(1787223559.501742) can0 01F83100#8F064B45 R
(1787223559.513477) can0 01F83100#83064B46 R
(1787223559.515027) can0 02F83207#C8003629014A1C R
(1787223559.519071) can0 02F83202#00 R
(1787223559.525258) can0 01F83100#3D064B47 R
(1787223559.536983) can0 01F83100#0E064B48 R
(1787223559.548086) can0 01F83100#C0054B49 R
(1787223559.559883) can0 01F83100#57054B4A R
(1787223559.571604) can0 01F83100#0C054B4B R
(1787223559.574064) can0 04F83401#A0FCEF0D3E R
(1787223559.577352) can0 03106300#55030101 R
(1787223559.578922) can0 03216401# R
(1787223559.582821) can0 01F83100#F5044B4C R
(1787223559.584832) can0 041A6401#0B0062179E02 R
(1787223559.594628) can0 01F83100#DE044B4D R
(1787223559.606420) can0 01F83100#D2044B4E R
(1787223559.610264) can0 02F83208#DC00 R
(1787223559.615316) can0 02F83207#C800362901511C R
(1787223559.618197) can0 01F83100#DA044B4F R
(1787223559.619318) can0 02F83202#00 R
(1787223559.629298) can0 01F83100#F5044B50 R
(1787223559.641060) can0 01F83100#05054B51 R
(1787223559.652858) can0 01F83100#09054B52 R
(1787223559.658407) can0 02F83201#670A4102100E40FF R
(1787223559.659408) can0 02F83200#3442004B09058C0A R
(1787223559.664635) can0 01F83100#20054B53 R
(1787223559.675703) can0 01F83100#43054B54 R
(1787223559.677458) can0 03106300#55030101 R
(1787223559.679028) can0 03216401# R
(1787223559.686230) can0 041A6401#0B0062179E02 R
(1787223559.687682) can0 01F83100#37054B55 R
(1787223559.699326) can0 01F83100#3B054B56 R
(1787223559.710470) can0 01F83100#53054B57 R
(1787223559.715559) can0 02F83207#C700372F01591C R
(1787223559.717557) can0 02F83204#01 R
(1787223559.719559) can0 02F83202#00 R
(1787223559.722276) can0 01F83100#6E054B58 R
(1787223559.733996) can0 01F83100#5F054B59 R
(1787223559.745754) can0 01F83100#28054B5A R
(1787223559.756898) can0 01F83100#05054B5B R
(1787223559.768624) can0 01F83100#14054B5C R
(1787223559.778019) can0 03106300#55030101 R
(1787223559.779585) can0 03216401# R
(1787223559.780552) can0 01F83100#10054B5D R
(1787223559.786498) can0 041A6401#0B0062179E02 R
(1787223559.792212) can0 01F83100#F5044B5E R
(1787223559.803316) can0 01F83100#E5044B5F R
(1787223559.810805) can0 02F83208#7500 R
(1787223559.815134) can0 01F83100#E5044B60 R
(1787223559.815815) can0 02F83207#C700372F01611C R
(1787223559.819808) can0 02F83202#00 R
(1787223559.826914) can0 01F83100#E9044B61 R
(1787223559.838635) can0 01F83100#E2044B62 R
(1787223559.849734) can0 01F83100#D6044B63 R
(1787223559.861533) can0 01F83100#D6044A64 R
(1787223559.873253) can0 01F83100#D6044A65 R
(1787223559.877250) can0 03106300#55030101 R
(1787223559.878819) can0 03216401# R
(1787223559.880385) can0 03FF1300#00 R
(1787223559.884530) can0 041A6401#0B0062179E02 R
(1787223559.885271) can0 01F83100#D6044A66 R
(1787223559.896234) can0 01F83100#D2044A67 R
(1787223559.907348) can0 04F83401#6AFD140E3E R
(1787223559.908158) can0 01F83100#D6044A68 R
(1787223559.909060) can0 02F83201#560A0A014C0E40FF R
(1787223559.909621) can0 04F83400#682B9D16342F64 R
(1787223559.910129) can0 02F83200#3442004BD6048C0A R
(1787223559.916065) can0 02F83207#C700372F01691C R
(1787223559.919331) can0 01F83100#D6044A69 R
(1787223559.920072) can0 02F83202#00 R
(1787223559.931086) can0 01F83100#DE044A6A R
(1787223559.942808) can0 01F83100#DA044A6B R
(1787223559.954565) can0 01F83100#DA044A6C R
(1787223559.966363) can0 01F83100#E5044A6D R
(1787223559.977430) can0 01F83100#01054A6E R
(1787223559.979041) can0 03106300#55030101 R
(1787223559.980612) can0 03216401# R
(1787223559.987138) can0 041A6401#0B0062179E02 R
(1787223559.989308) can0 01F83100#FD044A6F R
(1787223560.001029) can0 01F83100#E9044A70 R
(1787223560.011308) can0 02F83208#7400 R
(1787223560.012294) can0 01F83100#FD044A71 R
(1787223560.016323) can0 02F83207#C400383401711C R
(1787223560.020371) can0 02F83202#00 R
(1787223560.024018) can0 01F83100#09054A72 R
(1787223560.035748) can0 01F83100#ED044A73 R
(1787223560.047469) can0 01F83100#D6044A74 R
(1787223560.059229) can0 01F83100#DA044A75 R
